Time [s], Analyzer Name, Decoded Protocol Result
0.003445520000000,CAN,Extended CAN Identifier: '102842394' (0x0621401A)
0.003795520000000,CAN,Control Field: '8' (0x8) bytes
0.003835520000000,CAN,Data Field Byte: '0' (0x00)
0.003935520000000,CAN,Data Field Byte: '5' (0x05)
0.004025520000000,CAN,Data Field Byte: '1' (0x01)
0.004115520000000,CAN,Data Field Byte: '0' (0x00)
0.004205520000000,CAN,Data Field Byte: '0' (0x00)
0.004305520000000,CAN,Data Field Byte: '0' (0x00)
0.004395520000000,CAN,Data Field Byte: '0' (0x00)
0.004495520000000,CAN,Data Field Byte: '0' (0x00)
0.004595520000000,CAN,CRC value: '27547' (0x6B9B)
0.004755520000000,CAN,ACK
0.004885540000000,CAN,Extended CAN Identifier: '235487258' (0x0E09401A)
0.005245540000000,CAN,Control Field: '2' (0x2) bytes
0.005295540000000,CAN,Data Field Byte: '0' (0x00)
0.005385540000000,CAN,Data Field Byte: '30' (0x1E)
0.005475540000000,CAN,CRC value: '18929' (0x49F1)
0.005645540000000,CAN,ACK
0.010395420000000,CAN,Extended CAN Identifier: '102842378' (0x0621400A)
0.010755420000000,CAN,Control Field: '2' (0x2) bytes
0.010805420000000,CAN,Data Field Byte: '4' (0x04)
0.010895420000000,CAN,Data Field Byte: '0' (0x00)
0.010995420000000,CAN,CRC value: '10772' (0x2A14)
0.011155420000000,CAN,ACK
0.011655160000000,CAN,Extended CAN Identifier: '35733504' (0x02214000)
0.012025160000000,CAN,Control Field: '6' (0x6) bytes
0.012065160000000,CAN,Data Field Byte: '0' (0x00)
0.012155160000000,CAN,Data Field Byte: h (0x68)
0.012245160000000,CAN,Data Field Byte: '0' (0x00)
0.012345160000000,CAN,Data Field Byte: '0' (0x00)
0.012435160000000,CAN,Data Field Byte: '0' (0x00)
0.012535160000000,CAN,Data Field Byte: '0' (0x00)
0.012635160000000,CAN,CRC value: '8558' (0x216E)
0.012795160000000,CAN,ACK
0.013085120000000,CAN,Extended CAN Identifier: '69287937' (0x04214001)
0.013445120000000,CAN,Control Field: '8' (0x8) bytes
0.013485120000000,CAN,Data Field Byte: '0' (0x00)
0.013585120000000,CAN,Data Field Byte: '2' (0x02)
0.013675120000000,CAN,Data Field Byte: '208' (0xD0)
0.013755120000000,CAN,Data Field Byte: '130' (0x82)
0.013845120000000,CAN,Data Field Byte: '3' (0x03)
0.013935120000000,CAN,Data Field Byte: ~ (0x7E)
0.014025120000000,CAN,Data Field Byte: '23' (0x17)
0.014105120000000,CAN,Data Field Byte: '0' (0x00)
0.014195120000000,CAN,CRC value: '13664' (0x3560)
0.014365120000000,CAN,ACK
0.015635240000000,CAN,Extended CAN Identifier: '103890947' (0x06314003)
0.015995240000000,CAN,Control Field: '8' (0x8) bytes
0.016035240000000,CAN,Data Field Byte: ' ' (0x20)
0.016135240000000,CAN,Data Field Byte: '16' (0x10)
0.016215240000000,CAN,Data Field Byte: 0 (0x30)
0.016305240000000,CAN,Data Field Byte: '0' (0x00)
0.016405240000000,CAN,Data Field Byte: '0' (0x00)
0.016505240000000,CAN,Data Field Byte: '0' (0x00)
0.016595240000000,CAN,Data Field Byte: '0' (0x00)
0.016695240000000,CAN,Data Field Byte: '0' (0x00)
0.016785240000000,CAN,CRC value: '6242' (0x1862)
0.016955240000000,CAN,ACK
0.018104980000000,CAN,Extended CAN Identifier: '69812225' (0x04294001)
0.018464980000000,CAN,Control Field: '8' (0x8) bytes
0.018504980000000,CAN,Data Field Byte: '0' (0x00)
0.018604980000000,CAN,Data Field Byte: '0' (0x00)
0.018694980000000,CAN,Data Field Byte: '0' (0x00)
0.018794980000000,CAN,Data Field Byte: '0' (0x00)
0.018894980000000,CAN,Data Field Byte: '0' (0x00)
0.018984980000000,CAN,Data Field Byte: '0' (0x00)
0.019084980000000,CAN,Data Field Byte: '1' (0x01)
0.019174980000000,CAN,Data Field Byte: '128' (0x80)
0.019264980000000,CAN,CRC value: '14432' (0x3860)
0.019434980000000,CAN,ACK
0.019564960000000,CAN,Extended CAN Identifier: '69287947' (0x0421400B)
0.019924960000000,CAN,Control Field: '8' (0x8) bytes
0.019964960000000,CAN,Data Field Byte: '0' (0x00)
0.020064960000000,CAN,Data Field Byte: '134' (0x86)
0.020144960000000,CAN,Data Field Byte: > (0x3E)
0.020234960000000,CAN,Data Field Byte: '4' (0x04)
0.020324960000000,CAN,Data Field Byte: '0' (0x00)
0.020424960000000,CAN,Data Field Byte: '0' (0x00)
0.020514960000000,CAN,Data Field Byte: '0' (0x00)
0.020614960000000,CAN,Data Field Byte: '0' (0x00)
0.020704960000000,CAN,CRC value: '6188' (0x182C)
0.020884960000000,CAN,ACK
0.021684900000000,CAN,Extended CAN Identifier: '69287942' (0x04214006)
0.022044900000000,CAN,Control Field: '8' (0x8) bytes
0.022084900000000,CAN,Data Field Byte: '0' (0x00)
0.022184900000000,CAN,Data Field Byte: '0' (0x00)
0.022274900000000,CAN,Data Field Byte: '0' (0x00)
0.022374900000000,CAN,Data Field Byte: '0' (0x00)
0.022474900000000,CAN,Data Field Byte: '0' (0x00)
0.022564900000000,CAN,Data Field Byte: '0' (0x00)
0.022664900000000,CAN,Data Field Byte: '0' (0x00)
0.022754900000000,CAN,Data Field Byte: '0' (0x00)
0.022854900000000,CAN,CRC value: '11418' (0x2C9A)
0.023014900000000,CAN,ACK
0.026644780000000,CAN,Extended CAN Identifier: '70861056' (0x04394100)
0.027014780000000,CAN,Control Field: '8' (0x8) bytes
0.027054780000000,CAN,Data Field Byte: ~ (0x7E)
0.027144780000000,CAN,Data Field Byte: '151' (0x97)
0.027224780000000,CAN,Data Field Byte: '234' (0xEA)
0.027314780000000,CAN,Data Field Byte: '0' (0x00)
0.027404780000000,CAN,Data Field Byte: '3' (0x03)
0.027504780000000,CAN,Data Field Byte: '255' (0xFF)
0.027604780000000,CAN,Data Field Byte: '128' (0x80)
0.027694780000000,CAN,Data Field Byte: '0' (0x00)
0.027794780000000,CAN,CRC value: '27497' (0x6B69)
0.027954780000000,CAN,ACK
0.033074800000000,CAN,Extended CAN Identifier: '103890976' (0x06314020)
0.033434800000000,CAN,Control Field: '4' (0x4) bytes
0.033474800000000,CAN,Data Field Byte: '0' (0x00)
0.033574800000000,CAN,Data Field Byte: '0' (0x00)
0.033664800000000,CAN,Data Field Byte: '0' (0x00)
0.033764800000000,CAN,Data Field Byte: '152' (0x98)
0.033844800000000,CAN,CRC value: '7279' (0x1C6F)
0.034014800000000,CAN,ACK
0.036644520000000,CAN,Extended CAN Identifier: '70860800' (0x04394000)
0.037014520000000,CAN,Control Field: '4' (0x4) bytes
0.037054520000000,CAN,Data Field Byte: '0' (0x00)
0.037154520000000,CAN,Data Field Byte: '0' (0x00)
0.037244520000000,CAN,Data Field Byte: '0' (0x00)
0.037344520000000,CAN,Data Field Byte: C (0x43)
0.037424520000000,CAN,CRC value: '22436' (0x57A4)
0.037584520000000,CAN,ACK
0.038074480000000,CAN,Extended CAN Identifier: '69287937' (0x04214001)
0.038434480000000,CAN,Control Field: '8' (0x8) bytes
0.038474480000000,CAN,Data Field Byte: '0' (0x00)
0.038574480000000,CAN,Data Field Byte: '2' (0x02)
0.038664480000000,CAN,Data Field Byte: '208' (0xD0)
0.038744480000000,CAN,Data Field Byte: '130' (0x82)
0.038834480000000,CAN,Data Field Byte: '3' (0x03)
0.038924480000000,CAN,Data Field Byte: { (0x7B)
0.039004480000000,CAN,Data Field Byte: '23' (0x17)
0.039084480000000,CAN,Data Field Byte: '0' (0x00)
0.039174480000000,CAN,CRC value: '3606' (0x0E16)
0.039344480000000,CAN,ACK
0.043074360000000,CAN,Extended CAN Identifier: '69812225' (0x04294001)
0.043434360000000,CAN,Control Field: '8' (0x8) bytes
0.043474360000000,CAN,Data Field Byte: '0' (0x00)
0.043574360000000,CAN,Data Field Byte: '0' (0x00)
0.043664360000000,CAN,Data Field Byte: '0' (0x00)
0.043764360000000,CAN,Data Field Byte: '0' (0x00)
0.043864360000000,CAN,Data Field Byte: '0' (0x00)
0.043954360000000,CAN,Data Field Byte: '0' (0x00)
0.044054360000000,CAN,Data Field Byte: '1' (0x01)
0.044144360000000,CAN,Data Field Byte: '128' (0x80)
0.044234360000000,CAN,CRC value: '14432' (0x3860)
0.044404360000000,CAN,ACK
0.044534320000000,CAN,Extended CAN Identifier: '102842368' (0x06214000)
0.044904320000000,CAN,Control Field: '8' (0x8) bytes
0.044944320000000,CAN,Data Field Byte: COMMA (0x2C)
0.045034320000000,CAN,Data Field Byte: '0' (0x00)
0.045134320000000,CAN,Data Field Byte: @ (0x40)
0.045224320000000,CAN,Data Field Byte: '0' (0x00)
0.045314320000000,CAN,Data Field Byte: '0' (0x00)
0.045414320000000,CAN,Data Field Byte: 8 (0x38)
0.045494320000000,CAN,Data Field Byte: '11' (0x0B)
0.045584320000000,CAN,Data Field Byte: '0' (0x00)
0.045674320000000,CAN,CRC value: '25820' (0x64DC)
0.045834320000000,CAN,ACK
0.056654020000000,CAN,Extended CAN Identifier: '103301120' (0x06284000)
0.057024020000000,CAN,Control Field: '8' (0x8) bytes
0.057064020000000,CAN,Data Field Byte: '0' (0x00)
0.057164020000000,CAN,Data Field Byte: '0' (0x00)
0.057254020000000,CAN,Data Field Byte: '0' (0x00)
0.057354020000000,CAN,Data Field Byte: '0' (0x00)
0.057454020000000,CAN,Data Field Byte: '0' (0x00)
0.057544020000000,CAN,Data Field Byte: '0' (0x00)
0.057644020000000,CAN,Data Field Byte: '0' (0x00)
0.057734020000000,CAN,Data Field Byte: '0' (0x00)
0.057834020000000,CAN,CRC value: '27941' (0x6D25)
0.057994020000000,CAN,ACK
0.063073860000000,CAN,Extended CAN Identifier: '69287937' (0x04214001)
0.063433860000000,CAN,Control Field: '8' (0x8) bytes
0.063473860000000,CAN,Data Field Byte: '0' (0x00)
0.063573860000000,CAN,Data Field Byte: '2' (0x02)
0.063663860000000,CAN,Data Field Byte: '208' (0xD0)
0.063743860000000,CAN,Data Field Byte: '130' (0x82)
0.063833860000000,CAN,Data Field Byte: '3' (0x03)
0.063923860000000,CAN,Data Field Byte: { (0x7B)
0.064003860000000,CAN,Data Field Byte: '23' (0x17)
0.064083860000000,CAN,Data Field Byte: '0' (0x00)
0.064173860000000,CAN,CRC value: '3606' (0x0E16)
0.064343860000000,CAN,ACK
0.068083740000000,CAN,Extended CAN Identifier: '69812225' (0x04294001)
0.068443740000000,CAN,Control Field: '8' (0x8) bytes
0.068483740000000,CAN,Data Field Byte: '0' (0x00)
0.068583740000000,CAN,Data Field Byte: '0' (0x00)
0.068673740000000,CAN,Data Field Byte: '0' (0x00)
0.068773740000000,CAN,Data Field Byte: '0' (0x00)
0.068873740000000,CAN,Data Field Byte: '0' (0x00)
0.068963740000000,CAN,Data Field Byte: '0' (0x00)
0.069063740000000,CAN,Data Field Byte: '1' (0x01)
0.069153740000000,CAN,Data Field Byte: '128' (0x80)
0.069243740000000,CAN,CRC value: '14432' (0x3860)
0.069413740000000,CAN,ACK
0.069553700000000,CAN,Extended CAN Identifier: '69287947' (0x0421400B)
0.069913700000000,CAN,Control Field: '8' (0x8) bytes
0.069953700000000,CAN,Data Field Byte: '0' (0x00)
0.070053700000000,CAN,Data Field Byte: '134' (0x86)
0.070133700000000,CAN,Data Field Byte: > (0x3E)
0.070223700000000,CAN,Data Field Byte: '4' (0x04)
0.070313700000000,CAN,Data Field Byte: '0' (0x00)
0.070413700000000,CAN,Data Field Byte: '0' (0x00)
0.070503700000000,CAN,Data Field Byte: '0' (0x00)
0.070603700000000,CAN,Data Field Byte: '0' (0x00)
0.070693700000000,CAN,CRC value: '6188' (0x182C)
0.070873700000000,CAN,ACK
0.071683640000000,CAN,Extended CAN Identifier: '69287942' (0x04214006)
0.072043640000000,CAN,Control Field: '8' (0x8) bytes
0.072083640000000,CAN,Data Field Byte: '0' (0x00)
0.072183640000000,CAN,Data Field Byte: '0' (0x00)
0.072273640000000,CAN,Data Field Byte: '0' (0x00)
0.072373640000000,CAN,Data Field Byte: '0' (0x00)
0.072473640000000,CAN,Data Field Byte: '0' (0x00)
0.072563640000000,CAN,Data Field Byte: '0' (0x00)
0.072663640000000,CAN,Data Field Byte: '0' (0x00)
0.072753640000000,CAN,Data Field Byte: '0' (0x00)
0.072853640000000,CAN,CRC value: '11418' (0x2C9A)
0.073013640000000,CAN,ACK
0.074193580000000,CAN,Extended CAN Identifier: '103104512' (0x06254000)
0.074563580000000,CAN,Control Field: '8' (0x8) bytes
0.074603580000000,CAN,Data Field Byte: '128' (0x80)
0.074693580000000,CAN,Data Field Byte: '255' (0xFF)
0.074783580000000,CAN,Data Field Byte: '255' (0xFF)
0.074883580000000,CAN,Data Field Byte: '0' (0x00)
0.074973580000000,CAN,Data Field Byte: '255' (0xFF)
0.075063580000000,CAN,Data Field Byte: '255' (0xFF)
0.075163580000000,CAN,Data Field Byte: '255' (0xFF)
0.075253580000000,CAN,Data Field Byte: '0' (0x00)
0.075343580000000,CAN,CRC value: '15014' (0x3AA6)
0.075503580000000,CAN,ACK
0.076643520000000,CAN,Extended CAN Identifier: '70861056' (0x04394100)
0.077013520000000,CAN,Control Field: '8' (0x8) bytes
0.077053520000000,CAN,Data Field Byte: ~ (0x7E)
0.077143520000000,CAN,Data Field Byte: '183' (0xB7)
0.077223520000000,CAN,Data Field Byte: '234' (0xEA)
0.077313520000000,CAN,Data Field Byte: '0' (0x00)
0.077403520000000,CAN,Data Field Byte: '3' (0x03)
0.077503520000000,CAN,Data Field Byte: '255' (0xFF)
0.077603520000000,CAN,Data Field Byte: '128' (0x80)
0.077693520000000,CAN,Data Field Byte: '0' (0x00)
0.077793520000000,CAN,CRC value: '24975' (0x618F)
0.077953520000000,CAN,ACK
0.081653380000000,CAN,Extended CAN Identifier: '36257792' (0x02294000)
0.082023380000000,CAN,Control Field: '8' (0x8) bytes
0.082063380000000,CAN,Data Field Byte: '0' (0x00)
0.082163380000000,CAN,Data Field Byte: '0' (0x00)
0.082253380000000,CAN,Data Field Byte: '0' (0x00)
0.082353380000000,CAN,Data Field Byte: '0' (0x00)
0.082453380000000,CAN,Data Field Byte: '0' (0x00)
0.082543380000000,CAN,Data Field Byte: '0' (0x00)
0.082643380000000,CAN,Data Field Byte: '0' (0x00)
0.082733380000000,CAN,Data Field Byte: '0' (0x00)
0.082833380000000,CAN,CRC value: '6030' (0x178E)
0.082993380000000,CAN,ACK
0.086643260000000,CAN,Extended CAN Identifier: '70860800' (0x04394000)
0.087013260000000,CAN,Control Field: '4' (0x4) bytes
0.087053260000000,CAN,Data Field Byte: '0' (0x00)
0.087153260000000,CAN,Data Field Byte: '0' (0x00)
0.087243260000000,CAN,Data Field Byte: '0' (0x00)
0.087343260000000,CAN,Data Field Byte: C (0x43)
0.087423260000000,CAN,CRC value: '22436' (0x57A4)
0.087583260000000,CAN,ACK
0.088083220000000,CAN,Extended CAN Identifier: '69287937' (0x04214001)
0.088443220000000,CAN,Control Field: '8' (0x8) bytes
0.088483220000000,CAN,Data Field Byte: '0' (0x00)
0.088583220000000,CAN,Data Field Byte: '2' (0x02)
0.088673220000000,CAN,Data Field Byte: '208' (0xD0)
0.088753220000000,CAN,Data Field Byte: '130' (0x82)
0.088843220000000,CAN,Data Field Byte: '3' (0x03)
0.088933220000000,CAN,Data Field Byte: { (0x7B)
0.089013220000000,CAN,Data Field Byte: '23' (0x17)
0.089093220000000,CAN,Data Field Byte: '0' (0x00)
0.089183220000000,CAN,CRC value: '3606' (0x0E16)
0.089353220000000,CAN,ACK
0.093083100000000,CAN,Extended CAN Identifier: '69812225' (0x04294001)
0.093443100000000,CAN,Control Field: '8' (0x8) bytes
0.093483100000000,CAN,Data Field Byte: '0' (0x00)
0.093583100000000,CAN,Data Field Byte: '0' (0x00)
0.093673100000000,CAN,Data Field Byte: '0' (0x00)
0.093773100000000,CAN,Data Field Byte: '0' (0x00)
0.093873100000000,CAN,Data Field Byte: '0' (0x00)
0.093963100000000,CAN,Data Field Byte: '0' (0x00)
0.094063100000000,CAN,Data Field Byte: '1' (0x01)
0.094153100000000,CAN,Data Field Byte: '128' (0x80)
0.094243100000000,CAN,CRC value: '14432' (0x3860)
0.094413100000000,CAN,ACK
0.109192700000000,CAN,Extended CAN Identifier: '103890944' (0x06314000)
0.109562700000000,CAN,Control Field: '8' (0x8) bytes
0.109602700000000,CAN,Data Field Byte: '0' (0x00)
0.109702700000000,CAN,Data Field Byte: '0' (0x00)
0.109792700000000,CAN,Data Field Byte: '0' (0x00)
0.109892700000000,CAN,Data Field Byte: '0' (0x00)
0.109992700000000,CAN,Data Field Byte: '0' (0x00)
0.110082700000000,CAN,Data Field Byte: '0' (0x00)
0.110182700000000,CAN,Data Field Byte: '0' (0x00)
0.110272700000000,CAN,Data Field Byte: '0' (0x00)
0.110372700000000,CAN,CRC value: '10610' (0x2972)
0.110532700000000,CAN,ACK
0.113082600000000,CAN,Extended CAN Identifier: '69287937' (0x04214001)
0.113442600000000,CAN,Control Field: '8' (0x8) bytes
0.113482600000000,CAN,Data Field Byte: '0' (0x00)
0.113582600000000,CAN,Data Field Byte: '2' (0x02)
0.113672600000000,CAN,Data Field Byte: '208' (0xD0)
0.113752600000000,CAN,Data Field Byte: '130' (0x82)
0.113842600000000,CAN,Data Field Byte: '3' (0x03)
0.113932600000000,CAN,Data Field Byte: ~ (0x7E)
0.114022600000000,CAN,Data Field Byte: '23' (0x17)
0.114102600000000,CAN,Data Field Byte: '0' (0x00)
0.114192600000000,CAN,CRC value: '13664' (0x3560)
0.114362600000000,CAN,ACK
0.118092480000000,CAN,Extended CAN Identifier: '69812225' (0x04294001)
0.118452480000000,CAN,Control Field: '8' (0x8) bytes
0.118492480000000,CAN,Data Field Byte: '0' (0x00)
0.118592480000000,CAN,Data Field Byte: '0' (0x00)
0.118682480000000,CAN,Data Field Byte: '0' (0x00)
0.118782480000000,CAN,Data Field Byte: '0' (0x00)
0.118882480000000,CAN,Data Field Byte: '0' (0x00)
0.118972480000000,CAN,Data Field Byte: '0' (0x00)
0.119072480000000,CAN,Data Field Byte: '1' (0x01)
0.119162480000000,CAN,Data Field Byte: '128' (0x80)
0.119252480000000,CAN,CRC value: '14432' (0x3860)
0.119422480000000,CAN,ACK
0.119552440000000,CAN,Extended CAN Identifier: '69287947' (0x0421400B)
0.119912440000000,CAN,Control Field: '8' (0x8) bytes
0.119952440000000,CAN,Data Field Byte: '0' (0x00)
0.120052440000000,CAN,Data Field Byte: '134' (0x86)
0.120132440000000,CAN,Data Field Byte: > (0x3E)
0.120222440000000,CAN,Data Field Byte: '4' (0x04)
0.120312440000000,CAN,Data Field Byte: '0' (0x00)
0.120412440000000,CAN,Data Field Byte: '0' (0x00)
0.120502440000000,CAN,Data Field Byte: '0' (0x00)
0.120602440000000,CAN,Data Field Byte: '0' (0x00)
0.120692440000000,CAN,CRC value: '6188' (0x182C)
0.120872440000000,CAN,ACK
0.121682380000000,CAN,Extended CAN Identifier: '69287942' (0x04214006)
0.122042380000000,CAN,Control Field: '8' (0x8) bytes
0.122082380000000,CAN,Data Field Byte: '0' (0x00)
0.122182380000000,CAN,Data Field Byte: '0' (0x00)
0.122272380000000,CAN,Data Field Byte: '0' (0x00)
0.122372380000000,CAN,Data Field Byte: '0' (0x00)
0.122472380000000,CAN,Data Field Byte: '0' (0x00)
0.122562380000000,CAN,Data Field Byte: '0' (0x00)
0.122662380000000,CAN,Data Field Byte: '0' (0x00)
0.122752380000000,CAN,Data Field Byte: '0' (0x00)
0.122852380000000,CAN,CRC value: '11418' (0x2C9A)
0.123012380000000,CAN,ACK
0.126652260000000,CAN,Extended CAN Identifier: '70861056' (0x04394100)
0.127022260000000,CAN,Control Field: '8' (0x8) bytes
0.127062260000000,CAN,Data Field Byte: ~ (0x7E)
0.127152260000000,CAN,Data Field Byte: '183' (0xB7)
0.127232260000000,CAN,Data Field Byte: '234' (0xEA)
0.127322260000000,CAN,Data Field Byte: '0' (0x00)
0.127412260000000,CAN,Data Field Byte: '3' (0x03)
0.127512260000000,CAN,Data Field Byte: '255' (0xFF)
0.127612260000000,CAN,Data Field Byte: '128' (0x80)
0.127702260000000,CAN,Data Field Byte: '0' (0x00)
0.127802260000000,CAN,CRC value: '24975' (0x618F)
0.127962260000000,CAN,ACK
0.128452420000000,CAN,Extended CAN Identifier: '102842394' (0x0621401A)
0.128802420000000,CAN,Control Field: '8' (0x8) bytes
0.128842420000000,CAN,Data Field Byte: '0' (0x00)
0.128942420000000,CAN,Data Field Byte: '5' (0x05)
0.129032420000000,CAN,Data Field Byte: '1' (0x01)
0.129122420000000,CAN,Data Field Byte: '0' (0x00)
0.129212420000000,CAN,Data Field Byte: '0' (0x00)
0.129312420000000,CAN,Data Field Byte: '0' (0x00)
0.129402420000000,CAN,Data Field Byte: '0' (0x00)
0.129502420000000,CAN,Data Field Byte: '0' (0x00)
0.129602420000000,CAN,CRC value: '27547' (0x6B9B)
0.129762420000000,CAN,ACK
0.136672620000000,CAN,Extended CAN Identifier: '70860800' (0x04394000)
0.137042620000000,CAN,Control Field: '4' (0x4) bytes
0.137082620000000,CAN,Data Field Byte: '0' (0x00)
0.137182620000000,CAN,Data Field Byte: '0' (0x00)
0.137272620000000,CAN,Data Field Byte: '0' (0x00)
0.137372620000000,CAN,Data Field Byte: C (0x43)
0.137452620000000,CAN,CRC value: '22436' (0x57A4)
0.137612620000000,CAN,ACK
0.137742600000000,CAN,Extended CAN Identifier: '35733504' (0x02214000)
0.138112600000000,CAN,Control Field: '6' (0x6) bytes
0.138152600000000,CAN,Data Field Byte: '0' (0x00)
0.138242600000000,CAN,Data Field Byte: h (0x68)
0.138332600000000,CAN,Data Field Byte: '0' (0x00)
0.138432600000000,CAN,Data Field Byte: '0' (0x00)
0.138522600000000,CAN,Data Field Byte: '0' (0x00)
0.138622600000000,CAN,Data Field Byte: '0' (0x00)
0.138722600000000,CAN,CRC value: '8558' (0x216E)
0.138882600000000,CAN,ACK
0.139012580000000,CAN,Extended CAN Identifier: '69287937' (0x04214001)
0.139372580000000,CAN,Control Field: '8' (0x8) bytes
0.139412580000000,CAN,Data Field Byte: '0' (0x00)
0.139512580000000,CAN,Data Field Byte: '2' (0x02)
0.139602580000000,CAN,Data Field Byte: '208' (0xD0)
0.139682580000000,CAN,Data Field Byte: '130' (0x82)
0.139772580000000,CAN,Data Field Byte: '3' (0x03)
0.139862580000000,CAN,Data Field Byte: ~ (0x7E)
0.139952580000000,CAN,Data Field Byte: '23' (0x17)
